vc	V(vout)	d(V(Vout))
0.000000000000000e+00	2.500000e+00	-2.384186e-04
1.000000000000000e-03	2.500000e+00	-1.192093e-04
2.000000000000000e-03	2.500000e+00	0.000000e+00
3.000000000000000e-03	2.500000e+00	0.000000e+00
4.000000000000000e-03	2.500000e+00	0.000000e+00
5.000000000000000e-03	2.500000e+00	0.000000e+00
6.000000000000000e-03	2.500000e+00	0.000000e+00
7.000000000000000e-03	2.500000e+00	0.000000e+00
8.000000000000000e-03	2.500000e+00	0.000000e+00
9.000000000000001e-03	2.500000e+00	0.000000e+00
1.000000000000000e-02	2.500000e+00	0.000000e+00
1.100000000000000e-02	2.500000e+00	0.000000e+00
1.200000000000000e-02	2.500000e+00	0.000000e+00
1.300000000000000e-02	2.500000e+00	0.000000e+00
1.400000000000001e-02	2.500000e+00	0.000000e+00
1.500000000000001e-02	2.500000e+00	0.000000e+00
1.600000000000001e-02	2.500000e+00	0.000000e+00
1.700000000000001e-02	2.500000e+00	0.000000e+00
1.800000000000001e-02	2.500000e+00	0.000000e+00
1.900000000000001e-02	2.500000e+00	0.000000e+00
2.000000000000001e-02	2.500000e+00	0.000000e+00
2.100000000000001e-02	2.500000e+00	0.000000e+00
2.200000000000001e-02	2.500000e+00	0.000000e+00
2.300000000000001e-02	2.500000e+00	0.000000e+00
2.400000000000001e-02	2.500000e+00	0.000000e+00
2.500000000000002e-02	2.500000e+00	0.000000e+00
2.600000000000002e-02	2.500000e+00	0.000000e+00
2.700000000000002e-02	2.500000e+00	0.000000e+00
2.800000000000002e-02	2.500000e+00	0.000000e+00
2.900000000000002e-02	2.500000e+00	0.000000e+00
3.000000000000002e-02	2.500000e+00	0.000000e+00
3.100000000000002e-02	2.500000e+00	0.000000e+00
3.200000000000002e-02	2.500000e+00	0.000000e+00
3.300000000000002e-02	2.500000e+00	0.000000e+00
3.400000000000002e-02	2.500000e+00	0.000000e+00
3.500000000000002e-02	2.500000e+00	0.000000e+00
3.600000000000003e-02	2.500000e+00	0.000000e+00
3.700000000000003e-02	2.500000e+00	0.000000e+00
3.800000000000003e-02	2.500000e+00	0.000000e+00
3.900000000000003e-02	2.500000e+00	0.000000e+00
4.000000000000003e-02	2.500000e+00	0.000000e+00
4.100000000000003e-02	2.500000e+00	0.000000e+00
4.200000000000003e-02	2.500000e+00	0.000000e+00
4.300000000000003e-02	2.500000e+00	0.000000e+00
4.400000000000003e-02	2.500000e+00	0.000000e+00
4.500000000000003e-02	2.500000e+00	0.000000e+00
4.600000000000003e-02	2.500000e+00	0.000000e+00
4.700000000000003e-02	2.500000e+00	0.000000e+00
4.800000000000004e-02	2.500000e+00	0.000000e+00
4.900000000000004e-02	2.500000e+00	0.000000e+00
5.000000000000004e-02	2.500000e+00	0.000000e+00
5.100000000000004e-02	2.500000e+00	0.000000e+00
5.200000000000004e-02	2.500000e+00	0.000000e+00
5.300000000000004e-02	2.500000e+00	0.000000e+00
5.400000000000004e-02	2.500000e+00	0.000000e+00
5.500000000000004e-02	2.500000e+00	0.000000e+00
5.600000000000004e-02	2.500000e+00	0.000000e+00
5.700000000000004e-02	2.500000e+00	0.000000e+00
5.800000000000004e-02	2.500000e+00	0.000000e+00
5.900000000000005e-02	2.500000e+00	0.000000e+00
6.000000000000005e-02	2.500000e+00	0.000000e+00
6.100000000000005e-02	2.500000e+00	0.000000e+00
6.200000000000005e-02	2.500000e+00	0.000000e+00
6.300000000000004e-02	2.500000e+00	0.000000e+00
6.400000000000004e-02	2.500000e+00	0.000000e+00
6.500000000000004e-02	2.500000e+00	0.000000e+00
6.600000000000004e-02	2.500000e+00	0.000000e+00
6.700000000000005e-02	2.500000e+00	0.000000e+00
6.800000000000005e-02	2.500000e+00	0.000000e+00
6.900000000000005e-02	2.500000e+00	0.000000e+00
7.000000000000005e-02	2.500000e+00	0.000000e+00
7.100000000000005e-02	2.500000e+00	0.000000e+00
7.200000000000005e-02	2.500000e+00	0.000000e+00
7.300000000000005e-02	2.500000e+00	0.000000e+00
7.400000000000005e-02	2.500000e+00	0.000000e+00
7.500000000000005e-02	2.500000e+00	0.000000e+00
7.600000000000005e-02	2.500000e+00	0.000000e+00
7.700000000000005e-02	2.500000e+00	0.000000e+00
7.800000000000006e-02	2.500000e+00	0.000000e+00
7.900000000000006e-02	2.500000e+00	0.000000e+00
8.000000000000006e-02	2.500000e+00	0.000000e+00
8.100000000000006e-02	2.500000e+00	0.000000e+00
8.200000000000006e-02	2.500000e+00	0.000000e+00
8.300000000000006e-02	2.500000e+00	0.000000e+00
8.400000000000006e-02	2.500000e+00	0.000000e+00
8.500000000000006e-02	2.500000e+00	0.000000e+00
8.600000000000006e-02	2.500000e+00	0.000000e+00
8.700000000000006e-02	2.500000e+00	0.000000e+00
8.800000000000006e-02	2.500000e+00	0.000000e+00
8.900000000000007e-02	2.500000e+00	0.000000e+00
9.000000000000007e-02	2.500000e+00	0.000000e+00
9.100000000000007e-02	2.500000e+00	0.000000e+00
9.200000000000007e-02	2.500000e+00	0.000000e+00
9.300000000000007e-02	2.500000e+00	0.000000e+00
9.400000000000007e-02	2.500000e+00	0.000000e+00
9.500000000000007e-02	2.500000e+00	0.000000e+00
9.600000000000007e-02	2.500000e+00	0.000000e+00
9.700000000000007e-02	2.500000e+00	0.000000e+00
9.800000000000007e-02	2.500000e+00	0.000000e+00
9.900000000000007e-02	2.500000e+00	0.000000e+00
1.000000000000001e-01	2.500000e+00	0.000000e+00
1.010000000000001e-01	2.500000e+00	0.000000e+00
1.020000000000001e-01	2.500000e+00	0.000000e+00
1.030000000000001e-01	2.500000e+00	0.000000e+00
1.040000000000001e-01	2.500000e+00	0.000000e+00
1.050000000000001e-01	2.500000e+00	0.000000e+00
1.060000000000001e-01	2.500000e+00	0.000000e+00
1.070000000000001e-01	2.500000e+00	0.000000e+00
1.080000000000001e-01	2.500000e+00	0.000000e+00
1.090000000000001e-01	2.500000e+00	0.000000e+00
1.100000000000001e-01	2.500000e+00	0.000000e+00
1.110000000000001e-01	2.500000e+00	0.000000e+00
1.120000000000001e-01	2.500000e+00	0.000000e+00
1.130000000000001e-01	2.500000e+00	0.000000e+00
1.140000000000001e-01	2.500000e+00	0.000000e+00
1.150000000000001e-01	2.500000e+00	0.000000e+00
1.160000000000001e-01	2.500000e+00	0.000000e+00
1.170000000000001e-01	2.500000e+00	0.000000e+00
1.180000000000001e-01	2.500000e+00	0.000000e+00
1.190000000000001e-01	2.500000e+00	0.000000e+00
1.200000000000001e-01	2.500000e+00	0.000000e+00
1.210000000000001e-01	2.500000e+00	0.000000e+00
1.220000000000001e-01	2.500000e+00	0.000000e+00
1.230000000000001e-01	2.500000e+00	0.000000e+00
1.240000000000001e-01	2.500000e+00	0.000000e+00
1.250000000000001e-01	2.500000e+00	0.000000e+00
1.260000000000001e-01	2.500000e+00	0.000000e+00
1.270000000000001e-01	2.500000e+00	0.000000e+00
1.280000000000001e-01	2.500000e+00	0.000000e+00
1.290000000000001e-01	2.500000e+00	0.000000e+00
1.300000000000001e-01	2.500000e+00	0.000000e+00
1.310000000000001e-01	2.500000e+00	0.000000e+00
1.320000000000001e-01	2.500000e+00	0.000000e+00
1.330000000000001e-01	2.500000e+00	0.000000e+00
1.340000000000001e-01	2.500000e+00	0.000000e+00
1.350000000000001e-01	2.500000e+00	0.000000e+00
1.360000000000001e-01	2.500000e+00	0.000000e+00
1.370000000000001e-01	2.500000e+00	0.000000e+00
1.380000000000001e-01	2.500000e+00	0.000000e+00
1.390000000000001e-01	2.500000e+00	0.000000e+00
1.400000000000001e-01	2.500000e+00	0.000000e+00
1.410000000000001e-01	2.500000e+00	0.000000e+00
1.420000000000001e-01	2.500000e+00	0.000000e+00
1.430000000000001e-01	2.500000e+00	0.000000e+00
1.440000000000001e-01	2.500000e+00	0.000000e+00
1.450000000000001e-01	2.500000e+00	0.000000e+00
1.460000000000001e-01	2.500000e+00	0.000000e+00
1.470000000000001e-01	2.500000e+00	0.000000e+00
1.480000000000001e-01	2.500000e+00	0.000000e+00
1.490000000000001e-01	2.500000e+00	0.000000e+00
1.500000000000001e-01	2.500000e+00	0.000000e+00
1.510000000000001e-01	2.500000e+00	0.000000e+00
1.520000000000001e-01	2.500000e+00	0.000000e+00
1.530000000000001e-01	2.500000e+00	0.000000e+00
1.540000000000001e-01	2.500000e+00	0.000000e+00
1.550000000000001e-01	2.500000e+00	0.000000e+00
1.560000000000001e-01	2.500000e+00	0.000000e+00
1.570000000000001e-01	2.500000e+00	0.000000e+00
1.580000000000001e-01	2.500000e+00	0.000000e+00
1.590000000000001e-01	2.500000e+00	0.000000e+00
1.600000000000001e-01	2.500000e+00	0.000000e+00
1.610000000000001e-01	2.500000e+00	0.000000e+00
1.620000000000001e-01	2.500000e+00	0.000000e+00
1.630000000000001e-01	2.500000e+00	0.000000e+00
1.640000000000001e-01	2.500000e+00	0.000000e+00
1.650000000000001e-01	2.500000e+00	0.000000e+00
1.660000000000001e-01	2.500000e+00	0.000000e+00
1.670000000000001e-01	2.500000e+00	0.000000e+00
1.680000000000001e-01	2.500000e+00	0.000000e+00
1.690000000000001e-01	2.500000e+00	0.000000e+00
1.700000000000001e-01	2.500000e+00	0.000000e+00
1.710000000000001e-01	2.500000e+00	0.000000e+00
1.720000000000001e-01	2.500000e+00	0.000000e+00
1.730000000000001e-01	2.500000e+00	0.000000e+00
1.740000000000001e-01	2.500000e+00	0.000000e+00
1.750000000000001e-01	2.500000e+00	0.000000e+00
1.760000000000001e-01	2.500000e+00	0.000000e+00
1.770000000000001e-01	2.500000e+00	0.000000e+00
1.780000000000001e-01	2.500000e+00	0.000000e+00
1.790000000000001e-01	2.500000e+00	0.000000e+00
1.800000000000001e-01	2.500000e+00	0.000000e+00
1.810000000000001e-01	2.500000e+00	0.000000e+00
1.820000000000001e-01	2.500000e+00	0.000000e+00
1.830000000000001e-01	2.500000e+00	0.000000e+00
1.840000000000001e-01	2.500000e+00	0.000000e+00
1.850000000000001e-01	2.500000e+00	0.000000e+00
1.860000000000001e-01	2.500000e+00	0.000000e+00
1.870000000000001e-01	2.500000e+00	0.000000e+00
1.880000000000001e-01	2.500000e+00	0.000000e+00
1.890000000000001e-01	2.500000e+00	0.000000e+00
1.900000000000001e-01	2.500000e+00	0.000000e+00
1.910000000000001e-01	2.500000e+00	0.000000e+00
1.920000000000001e-01	2.500000e+00	0.000000e+00
1.930000000000001e-01	2.500000e+00	0.000000e+00
1.940000000000001e-01	2.500000e+00	0.000000e+00
1.950000000000001e-01	2.500000e+00	0.000000e+00
1.960000000000001e-01	2.500000e+00	0.000000e+00
1.970000000000001e-01	2.500000e+00	0.000000e+00
1.980000000000001e-01	2.500000e+00	0.000000e+00
1.990000000000001e-01	2.500000e+00	0.000000e+00
2.000000000000001e-01	2.500000e+00	0.000000e+00
2.010000000000002e-01	2.500000e+00	0.000000e+00
2.020000000000002e-01	2.500000e+00	0.000000e+00
2.030000000000002e-01	2.500000e+00	0.000000e+00
2.040000000000002e-01	2.500000e+00	0.000000e+00
2.050000000000002e-01	2.500000e+00	0.000000e+00
2.060000000000002e-01	2.500000e+00	0.000000e+00
2.070000000000002e-01	2.500000e+00	0.000000e+00
2.080000000000002e-01	2.500000e+00	0.000000e+00
2.090000000000002e-01	2.500000e+00	0.000000e+00
2.100000000000002e-01	2.500000e+00	0.000000e+00
2.110000000000002e-01	2.500000e+00	0.000000e+00
2.120000000000002e-01	2.500000e+00	0.000000e+00
2.130000000000002e-01	2.500000e+00	0.000000e+00
2.140000000000002e-01	2.500000e+00	0.000000e+00
2.150000000000002e-01	2.500000e+00	0.000000e+00
2.160000000000002e-01	2.500000e+00	0.000000e+00
2.170000000000002e-01	2.500000e+00	0.000000e+00
2.180000000000002e-01	2.500000e+00	0.000000e+00
2.190000000000002e-01	2.500000e+00	0.000000e+00
2.200000000000002e-01	2.500000e+00	0.000000e+00
2.210000000000002e-01	2.500000e+00	0.000000e+00
2.220000000000002e-01	2.500000e+00	0.000000e+00
2.230000000000002e-01	2.500000e+00	0.000000e+00
2.240000000000002e-01	2.500000e+00	0.000000e+00
2.250000000000002e-01	2.500000e+00	0.000000e+00
2.260000000000002e-01	2.500000e+00	0.000000e+00
2.270000000000002e-01	2.500000e+00	0.000000e+00
2.280000000000002e-01	2.500000e+00	0.000000e+00
2.290000000000002e-01	2.500000e+00	0.000000e+00
2.300000000000002e-01	2.500000e+00	0.000000e+00
2.310000000000002e-01	2.500000e+00	0.000000e+00
2.320000000000002e-01	2.500000e+00	0.000000e+00
2.330000000000002e-01	2.500000e+00	0.000000e+00
2.340000000000002e-01	2.500000e+00	0.000000e+00
2.350000000000002e-01	2.500000e+00	0.000000e+00
2.360000000000002e-01	2.500000e+00	0.000000e+00
2.370000000000002e-01	2.500000e+00	0.000000e+00
2.380000000000002e-01	2.500000e+00	0.000000e+00
2.390000000000002e-01	2.500000e+00	0.000000e+00
2.400000000000002e-01	2.500000e+00	0.000000e+00
2.410000000000002e-01	2.500000e+00	0.000000e+00
2.420000000000002e-01	2.500000e+00	0.000000e+00
2.430000000000002e-01	2.500000e+00	0.000000e+00
2.440000000000002e-01	2.500000e+00	0.000000e+00
2.450000000000002e-01	2.500000e+00	0.000000e+00
2.460000000000002e-01	2.500000e+00	0.000000e+00
2.470000000000002e-01	2.500000e+00	0.000000e+00
2.480000000000002e-01	2.500000e+00	0.000000e+00
2.490000000000002e-01	2.500000e+00	0.000000e+00
2.500000000000002e-01	2.500000e+00	0.000000e+00
2.510000000000002e-01	2.500000e+00	0.000000e+00
2.520000000000002e-01	2.500000e+00	0.000000e+00
2.530000000000002e-01	2.500000e+00	0.000000e+00
2.540000000000002e-01	2.500000e+00	0.000000e+00
2.550000000000002e-01	2.500000e+00	0.000000e+00
2.560000000000002e-01	2.500000e+00	0.000000e+00
2.570000000000002e-01	2.500000e+00	0.000000e+00
2.580000000000002e-01	2.500000e+00	0.000000e+00
2.590000000000002e-01	2.500000e+00	0.000000e+00
2.600000000000002e-01	2.500000e+00	0.000000e+00
2.610000000000002e-01	2.500000e+00	0.000000e+00
2.620000000000002e-01	2.500000e+00	0.000000e+00
2.630000000000002e-01	2.500000e+00	0.000000e+00
2.640000000000002e-01	2.500000e+00	0.000000e+00
2.650000000000002e-01	2.500000e+00	0.000000e+00
2.660000000000002e-01	2.500000e+00	0.000000e+00
2.670000000000002e-01	2.500000e+00	0.000000e+00
2.680000000000002e-01	2.500000e+00	0.000000e+00
2.690000000000002e-01	2.500000e+00	0.000000e+00
2.700000000000002e-01	2.500000e+00	0.000000e+00
2.710000000000002e-01	2.500000e+00	0.000000e+00
2.720000000000002e-01	2.500000e+00	0.000000e+00
2.730000000000002e-01	2.500000e+00	0.000000e+00
2.740000000000002e-01	2.500000e+00	0.000000e+00
2.750000000000002e-01	2.500000e+00	0.000000e+00
2.760000000000002e-01	2.500000e+00	0.000000e+00
2.770000000000002e-01	2.500000e+00	0.000000e+00
2.780000000000002e-01	2.500000e+00	0.000000e+00
2.790000000000002e-01	2.500000e+00	0.000000e+00
2.800000000000002e-01	2.500000e+00	0.000000e+00
2.810000000000002e-01	2.500000e+00	0.000000e+00
2.820000000000002e-01	2.500000e+00	0.000000e+00
2.830000000000002e-01	2.500000e+00	0.000000e+00
2.840000000000002e-01	2.500000e+00	0.000000e+00
2.850000000000002e-01	2.500000e+00	0.000000e+00
2.860000000000002e-01	2.500000e+00	0.000000e+00
2.870000000000002e-01	2.500000e+00	0.000000e+00
2.880000000000002e-01	2.500000e+00	0.000000e+00
2.890000000000002e-01	2.500000e+00	0.000000e+00
2.900000000000002e-01	2.500000e+00	0.000000e+00
2.910000000000002e-01	2.500000e+00	0.000000e+00
2.920000000000002e-01	2.500000e+00	0.000000e+00
2.930000000000002e-01	2.500000e+00	0.000000e+00
2.940000000000002e-01	2.500000e+00	0.000000e+00
2.950000000000002e-01	2.500000e+00	0.000000e+00
2.960000000000002e-01	2.500000e+00	0.000000e+00
2.970000000000002e-01	2.500000e+00	0.000000e+00
2.980000000000002e-01	2.500000e+00	0.000000e+00
2.990000000000002e-01	2.500000e+00	0.000000e+00
3.000000000000002e-01	2.500000e+00	0.000000e+00
3.010000000000002e-01	2.500000e+00	0.000000e+00
3.020000000000002e-01	2.500000e+00	0.000000e+00
3.030000000000002e-01	2.500000e+00	0.000000e+00
3.040000000000002e-01	2.500000e+00	0.000000e+00
3.050000000000002e-01	2.500000e+00	0.000000e+00
3.060000000000002e-01	2.500000e+00	0.000000e+00
3.070000000000002e-01	2.500000e+00	0.000000e+00
3.080000000000002e-01	2.500000e+00	0.000000e+00
3.090000000000002e-01	2.500000e+00	0.000000e+00
3.100000000000002e-01	2.500000e+00	0.000000e+00
3.110000000000002e-01	2.500000e+00	0.000000e+00
3.120000000000002e-01	2.500000e+00	0.000000e+00
3.130000000000002e-01	2.500000e+00	0.000000e+00
3.140000000000002e-01	2.500000e+00	0.000000e+00
3.150000000000002e-01	2.500000e+00	0.000000e+00
3.160000000000002e-01	2.500000e+00	0.000000e+00
3.170000000000002e-01	2.500000e+00	0.000000e+00
3.180000000000002e-01	2.500000e+00	0.000000e+00
3.190000000000002e-01	2.500000e+00	0.000000e+00
3.200000000000002e-01	2.500000e+00	0.000000e+00
3.210000000000002e-01	2.500000e+00	0.000000e+00
3.220000000000002e-01	2.500000e+00	0.000000e+00
3.230000000000002e-01	2.500000e+00	0.000000e+00
3.240000000000002e-01	2.500000e+00	0.000000e+00
3.250000000000002e-01	2.500000e+00	0.000000e+00
3.260000000000002e-01	2.500000e+00	0.000000e+00
3.270000000000002e-01	2.500000e+00	0.000000e+00
3.280000000000002e-01	2.500000e+00	0.000000e+00
3.290000000000002e-01	2.500000e+00	0.000000e+00
3.300000000000002e-01	2.500000e+00	0.000000e+00
3.310000000000002e-01	2.500000e+00	0.000000e+00
3.320000000000002e-01	2.500000e+00	0.000000e+00
3.330000000000002e-01	2.500000e+00	0.000000e+00
3.340000000000002e-01	2.500000e+00	0.000000e+00
3.350000000000002e-01	2.500000e+00	0.000000e+00
3.360000000000002e-01	2.500000e+00	0.000000e+00
3.370000000000002e-01	2.500000e+00	0.000000e+00
3.380000000000002e-01	2.500000e+00	0.000000e+00
3.390000000000002e-01	2.500000e+00	0.000000e+00
3.400000000000002e-01	2.500000e+00	0.000000e+00
3.410000000000002e-01	2.500000e+00	0.000000e+00
3.420000000000002e-01	2.500000e+00	0.000000e+00
3.430000000000002e-01	2.500000e+00	0.000000e+00
3.440000000000003e-01	2.500000e+00	0.000000e+00
3.450000000000003e-01	2.500000e+00	0.000000e+00
3.460000000000003e-01	2.500000e+00	0.000000e+00
3.470000000000003e-01	2.500000e+00	0.000000e+00
3.480000000000003e-01	2.500000e+00	0.000000e+00
3.490000000000003e-01	2.500000e+00	0.000000e+00
3.500000000000003e-01	2.500000e+00	0.000000e+00
3.510000000000003e-01	2.500000e+00	0.000000e+00
3.520000000000003e-01	2.500000e+00	0.000000e+00
3.530000000000003e-01	2.500000e+00	0.000000e+00
3.540000000000003e-01	2.500000e+00	0.000000e+00
3.550000000000003e-01	2.500000e+00	0.000000e+00
3.560000000000003e-01	2.500000e+00	0.000000e+00
3.570000000000003e-01	2.500000e+00	0.000000e+00
3.580000000000003e-01	2.500000e+00	0.000000e+00
3.590000000000003e-01	2.500000e+00	0.000000e+00
3.600000000000003e-01	2.500000e+00	0.000000e+00
3.610000000000003e-01	2.500000e+00	0.000000e+00
3.620000000000003e-01	2.500000e+00	0.000000e+00
3.630000000000003e-01	2.500000e+00	0.000000e+00
3.640000000000003e-01	2.500000e+00	0.000000e+00
3.650000000000003e-01	2.500000e+00	0.000000e+00
3.660000000000003e-01	2.500000e+00	0.000000e+00
3.670000000000003e-01	2.500000e+00	0.000000e+00
3.680000000000003e-01	2.500000e+00	0.000000e+00
3.690000000000003e-01	2.500000e+00	0.000000e+00
3.700000000000003e-01	2.500000e+00	0.000000e+00
3.710000000000003e-01	2.500000e+00	0.000000e+00
3.720000000000003e-01	2.500000e+00	0.000000e+00
3.730000000000003e-01	2.500000e+00	0.000000e+00
3.740000000000003e-01	2.500000e+00	0.000000e+00
3.750000000000003e-01	2.500000e+00	0.000000e+00
3.760000000000003e-01	2.500000e+00	0.000000e+00
3.770000000000003e-01	2.500000e+00	0.000000e+00
3.780000000000003e-01	2.500000e+00	0.000000e+00
3.790000000000003e-01	2.500000e+00	0.000000e+00
3.800000000000003e-01	2.500000e+00	0.000000e+00
3.810000000000003e-01	2.500000e+00	0.000000e+00
3.820000000000003e-01	2.500000e+00	0.000000e+00
3.830000000000003e-01	2.500000e+00	0.000000e+00
3.840000000000003e-01	2.500000e+00	0.000000e+00
3.850000000000003e-01	2.500000e+00	0.000000e+00
3.860000000000003e-01	2.500000e+00	0.000000e+00
3.870000000000003e-01	2.500000e+00	0.000000e+00
3.880000000000003e-01	2.500000e+00	0.000000e+00
3.890000000000003e-01	2.500000e+00	0.000000e+00
3.900000000000003e-01	2.500000e+00	0.000000e+00
3.910000000000003e-01	2.500000e+00	0.000000e+00
3.920000000000003e-01	2.500000e+00	0.000000e+00
3.930000000000003e-01	2.500000e+00	0.000000e+00
3.940000000000003e-01	2.500000e+00	0.000000e+00
3.950000000000003e-01	2.500000e+00	0.000000e+00
3.960000000000003e-01	2.500000e+00	0.000000e+00
3.970000000000003e-01	2.500000e+00	0.000000e+00
3.980000000000003e-01	2.500000e+00	0.000000e+00
3.990000000000003e-01	2.500000e+00	0.000000e+00
4.000000000000003e-01	2.500000e+00	-1.192093e-04
4.010000000000003e-01	2.500000e+00	-5.960464e-04
4.020000000000003e-01	2.499999e+00	-1.192093e-03
4.030000000000003e-01	2.499997e+00	-1.668930e-03
4.040000000000003e-01	2.499995e+00	-2.145767e-03
4.050000000000003e-01	2.499993e+00	-2.741814e-03
4.060000000000003e-01	2.499990e+00	-3.457069e-03
4.070000000000003e-01	2.499986e+00	-3.933907e-03
4.080000000000003e-01	2.499982e+00	-4.410744e-03
4.090000000000003e-01	2.499977e+00	-5.125999e-03
4.100000000000003e-01	2.499972e+00	-5.722046e-03
4.110000000000003e-01	2.499966e+00	-6.198883e-03
4.120000000000003e-01	2.499959e+00	-6.675720e-03
4.130000000000003e-01	2.499953e+00	-7.271767e-03
4.140000000000003e-01	2.499945e+00	-7.987022e-03
